
**** 12/04/19 10:28:30 *********** Evaluation PSpice (Nov 1999) **************

 * C:\Users\Maja-FESB\Documents\Schematic1.sch


 ****     CIRCUIT DESCRIPTION


******************************************************************************




* Schematics Version 9.1 - Web Update 1
* Thu Dec 06 16:08:23 2018



** Analysis setup **
.tran 0s 500e-6s 0 100ns


* From [PSPICE NETLIST] section of pspiceev.ini:
.lib "nom.lib"

.INC "Schematic1.net"

**** INCLUDING Schematic1.net ****
* Schematics Netlist *



R_R2         $N_0002 $N_0001  10  
V_V3         $N_0002 0 10V
X_U1         $N_0001 $N_0003 Sw_tClose PARAMS: tClose=0 ttran=1u Rclosed=0.01
+  Ropen=1Meg
T_T1         $N_0003 0 $N_0004 0 Z0=50 TD=10e-6  
R_R1         0 $N_0004  500  

**** RESUMING Schematic1.cir ****
.INC "Schematic1.als"



**** INCLUDING Schematic1.als ****
* Schematics Aliases *

.ALIASES
R_R2            R2(1=$N_0002 2=$N_0001 )
V_V3            V3(+=$N_0002 -=0 )
X_U1            U1(1=$N_0001 2=$N_0003 )
T_T1            T1(A+=$N_0003 A-=0 B+=$N_0004 B-=0 )
R_R1            R1(1=0 2=$N_0004 )
.ENDALIASES


**** RESUMING Schematic1.cir ****
.probe


.END

**** 12/04/19 10:28:30 *********** Evaluation PSpice (Nov 1999) **************

 * C:\Users\Maja-FESB\Documents\Schematic1.sch


 ****     Voltage Controlled Switch MODEL PARAMETERS


******************************************************************************




               X_U1.Smod       
         RON     .01         
        ROFF    1.000000E+06 
         VON    1            
        VOFF    0            


**** 12/04/19 10:28:30 *********** Evaluation PSpice (Nov 1999) **************

 * C:\Users\Maja-FESB\Documents\Schematic1.sch


 ****     INITIAL TRANSIENT SOLUTION       TEMPERATURE =   27.000 DEG C


******************************************************************************



 NODE   VOLTAGE     NODE   VOLTAGE     NODE   VOLTAGE     NODE   VOLTAGE


(X_U1.3)    0.0000 ($N_0001)    9.9999                   ($N_0002)   10.0000    

($N_0003)     .0050                   ($N_0004)     .0050                   




    VOLTAGE SOURCE CURRENTS
    NAME         CURRENT

    V_V3        -9.995E-06
    X_U1.V1      0.000E+00

    TOTAL POWER DISSIPATION   9.99E-05  WATTS



          JOB CONCLUDED

          TOTAL JOB TIME             .17
